JfServer
=======
~~1. AppServer 与JpServer合并~~
~~2. App相机权限~~
~~3. App下载页~~
4. 动环数据完善
~~5. 利用率显示（APP和web）~~
~~6. 3d button 图标~~
~~7. 3d 增加负载利用率~~
8. WEB版本实时数据查询
9. APP机柜名称真该
10. APP扫描ID，加载内容


Hashmap 排序  
TreeSet treeSet = new TreeSet(Hashmap.keySet());
其中key元素要implements Comparable<T>

2241918465

Spring Transaction的7种Propagation类型
1. REQUIRED: 支持当前事务，如果当前没有事务，就新建一个事务。
2. SUPPORTS：支持当前事务，如果当前没有事务，就以非事务方式执行
3. MANDATORY：支持当前事务，如果当前没有事务，就抛出异常。
4. REQUIRES_NEW: 新建事务，如果当前存在事务，就把当前事务挂起
5. NOT—SUPPORTED: 以非事务方式运行，如果当前存在事务，就把当前事务挂起。
6. NEVER：以非事务方式运行，如果当前存在事务，则抛出异常
7. NESTED：支持当前事务，如果当前事务存在，则执行一个嵌套事务，如果当前没有事务，就新建一个一个事务。


数据库四种连接
1. 左连接  
左边的表是全的，右边的符合条件加上去
2. 右连接  
右边的表是全的，左边符合条件的加上去
3. 内连接
左右都符合条件才显示
4. 外连接
左右都显示全的


http://stoneu.com/dcim/om.htm
Unity3D Ly******ly

### 动环数据
1. 空调  
绿色   
19200   
2. 漏水检测  
橙色  

3. 电量仪  
蓝色
2400 DTR RTS      
4. 门禁 

门关着状态
02 01 40 00 00 43 03 
02 01 40 00 00 00 00 61 00 00 00 22 03
门开着状态
分开门和常开两种状态

遥控码字
关闭
02 01 2E 01 00 00 2C 03 02 01 2E 01 10 06 3A 03 
02 01 2E 01 00 00 2C 03 02 01 2E 01 10 06 3A 03
02 01 2E 01 00 00 2C 03 02 01 2E 01 10 06 3A 03
02 01 2E 01 00 00 2C 03 02 01 2E 01 10 06 3A 03
02 01 2E 01 00 00 2C 03 
02 01 2E 01 10 06 3A 03
褐色


电量仪码字
01 03 00 07 00 01 35 CB 
01：从机地址
03：功能码
00 07：起始点号
00 01：读取寄存器个数
35 CB：校验码

01 03 02 02 13 F8 E9 
01：从机地址
03：功能码
02：字节数
02 13：遥测值
F8 E9：校验码

01 03 00 10 00 01 85 CF 
01 03 02 0F E7 FD FE 
01 03 00 14 00 01 C4 0E 
01 03 02 04 4D 7A B1 
01 03 00 0C 00 01 44 09 
01 03 02 03 C5 78 E7 
01 03 00 01 00 01 D5 CA 
01 03 02 01 F4 B8 53 
01 03 00 02 00 01 25 CA 
01 03 02 08 BD 7F F5 
01 03 00 03 00 01 74 0A 
01 03 02 08 C3 FF D5 
01 03 00 04 00 01 C5 CB 
01 03 02 08 C9 7F D2 
01 03 00 05 00 01 94 0B 
01 03 02 02 65 79 0F 
01 03 00 06 00 01 64 0B 
01 03 02 02 FF F9 64 
01 03 00 07 00 01 35 CB 
01 03 02 02 11 79 28 
01 03 00 10 00 01 85 CF 
01 03 02 0F DB FD EF 
01 03 00 14 00 01 C4 0E 
01 03 02 04 45 7B 77 
01 03 00 0C 00 01 44 09 
01 03 02 03 C5 78 E7 
01 03 00 01 00 01 D5 CA 
01 03 02 01 F4 B8 53 
01 03 00 02 00 01 25 CA 
01 03 02 08 BD 7F F5 
01 03 00 03 00 01 74 0A 
01 03 02 08 C4 BE 17 
01 03 00 04 00 01 C5 CB 
01 03 02 08 C8 BE 12 
01 03 00 05 00 01 94 0B 
01 03 02 02 67 F8 CE 
01 03 00 06 00 01 64 0B 
01 03 02 03 02 39 75 
01 03 00 07 00 01 35 CB 
01 03 02 02 12 39 29 
01 03 00 10 00 01 85 CF 
01 03 02 0F E1 7D FC 
01 03 00 14 00 01 C4 0E 01 
03 02 04 50 BA B8 
01 03 00 0C 00 01 44 09 
01 03 02 03 C5 78 E7 
01 03 00 01 00 01 D5 CA 
01 03 02 01 F4 B8 53 
01 03 00 02 00 01 25 CA 
01 03 02 08 BE 3F F4 
01 03 00 03 00 01 74 0A 
01 03 02 08 C4 BE 17 
01 03 00 04 00 01 C5 CB 
01 03 02 08 C9 7F D2 
01 03 00 05 00 01 94 0B 
01 03 02 02 69 79 0A 
01 03 00 06 00 01 64 0B 
01 03 02 03 03 F8 B5 
01 03 00 07 00 01 35 CB 
01 03 02 02 11 79 28 
01 03 00 10 00 01 85 CF 
01 03 02 0F E7 FD FE 
01 03 00 14 00 01 C4 0E 01 
03 02 04 50 BA B8 
01 03 00 0C 00 01 44 09 
01 03 02 03 C5 78 E7 
01 03 00 01 00 01 D5 CA 
01 03 02 01 F4 B8 53 
01 03 00 02 00 01 25 CA 
01 03 02 08 BF FE 34 
01 03 00 03 00 01 74 0A 
01 03 02 08 C4 BE 17 
01 03 00 04 00 01 C5 CB 
01 03 02 08 C8 BE 12 
01 03 00 05 00 01 94 0B 
01 03 02 02 6A 39 0B 
01 03 00 06 00 01 64 0B 
01 03 02 03 02 39 75 
01 03 00 07 00 01 35 CB 


### 系统可提供功能 ###
#### 基础设施监控
集中监控，集中管理，及时预警，智能报警。动力、环境、安防、IT设备监控等。
#### 能耗管理
精准检测资产设备能耗使用情况，能耗统计、分析、节能减排措施计划支持。
#### 运维管理  
数据中心故障生命周期全程跟踪记录的闭环处理流程。
#### 资产管理
以资产生命周期为基础，以最大化利用资产为原则，帮助提供资产管理质量及效率。
#### 容量管理
高度可视化展示数据中心资产使用情况，为新资产设备上架部署提供决策性支持。
#### 报表管理
系统将所保存的台账信息、历史数据，操作记录、事件日志等记录生成可分类查询的统计报表
#### 动环监控
动环系统是一款高安全、稳定可靠的满足大数据要求的数据中心机房环境检测系统。系统与各智能设备进行
实时通讯交互。通过智能监控、分析、控制，并以多样化的报警处理机制和友好的展现方式，使数据中心运维人员
及时了解数据中心的资产设备允许情况，大大降低了管理人员的工作压力，提供运维整体效率。  
##### 功能模块 
1. 故障预警  
故障预警机制可在故障产生前给管理人员发送通知，使得故障能免于产生或迅速解决，提前预防故障产生，减少财产损失。
2. 能耗管理  
精准监测资产设备能耗使用情况，能耗统计、分析，节能减排措施计划支持。
3. 数据存储  
系统具有超大容量的数据存储空间，支持报警数据存储、按时间点存储、按时间间隔存储、按数据变化幅度存储等多样化的存储方式，满足不同客户不同需求。
4. 报警管理  
多样化的报警组、报警方式分配原则让您随时随地接收到报警，包括按时段分配，按设备分配等方式；报警方式包括短信、电话、邮件、声光、多媒体语音等。
5. 权限管理  
强大的交互性权限分配功能：不同类型、不同区域的设备在不同时间段的可由具有不同权限的不同管理员进行管理 。
6. 报表管理  
系统将所保存的历史数据、操作记录、事件日志等记录生成整体的统计报表

#### 三维监控
三维可视化平台通过动态仿真和拟实环境的建立使参与者对虚拟机房或园区进行直感交互、实现优化，可视化管理，这种新颖的管理手段，
可以大幅度提升数据中心机房用户的管理水平和效率，塑造全新机房监控的形象。  
功能模块  	
1. 三维仿真  
实景仿真采用虚拟现实技术，可展现出园区规划、建筑格局、设备分布、墙面材质，地面铺装，
天花吊顶。  
2. 统一监控  
系统将不同设备各种监控数据集中发布，集海量信息于同一个平台，一改传统的监控系统中
运维人员要每套都要熟悉的头疼局面。
3. 自由巡检  
系统可按照规定线路对整个数据中心的各设备的运行状态进行依次巡检，循环执行，也可根据
需要切换手动巡检模式  
4. 告警定位  
当系统检测到有告警发生时，会自动切换到报警设备的最佳查看视角，在最短的时间通知运维
人员故障设备、位置以及故障信息。
5. 子系统展示  
系统可将不同的子系统分别展示，淡化其它建筑及设备，突显该子系统的结构状态等。

#### 资产管理系统
资产管理系统，以数据中心资产生命全周期为管理基础，深度切合实际管控需求，实现资产从采购、
出入库、上下架、变更、处置、调拨等环节的全生命周期管控。同时通过独特的资产U位精准级定位、
2D/3D可视化操作、移动管理、资产维保管理等功能运用，实现数据中心资产运维管理向规范化、
智能化、精细化、可视化的全面发展。
##### 功能模块
1. U位级资产管理  
建立资产的数据信息，管理资产状态变化，包含资产新增、上下架、处置、回库等内容。
2. 软件产品管理  
对整个应用到的软件产品进行登记和安装关联，当软件产品快到期或已到期及时通知客户，
保证软件产品的实时有效性。
3. 资产维保  
对资产设备维保合同进行等级管理操作，以高效盘点功能及预警提供功能，确保资产的安全运行。
4. 资产盘点  
对整个数据中心库存、在架等所有状态资产设备进行集中盘点，异常状态资产及时通知用户，
盘点完自动生成盘点报表。
5. 业务流程管理  
对资产新增、采购、出入库、上下架、变更、处置、盘点等一系列操作流程化管理。
6. 资产可视化  
2D/3D可视化平台，可视化管理解决方案，直观展示设备信息，快速检索、定位、提升日常运维效率。
7. 用户可以操作虚拟人物执行相应的控制操作。

基于ITIL运维服务体系框架，用于登记机房各种信息故障申报请求，并对故障处理的过程进行跟踪和处理，包含IT服务问题管理、系统事件管理、服务外包项目管理、供应商管理及备件管理。本系统可以根据需求出具详细故障处理工单及报表，为制定电脑维护计划和IT资产购置提供依据。  

　　功能模块

	
故障管理

可登记机房各种信息故障申报请求，并对故障处理的过程进行跟踪和处理，记录设备故障产生时间、处理过程、处理人员及结果等。

	
知识库

对设备故障信息建立的知识库，在管理员确认报警信息的同时系统会给出判断报警原因的诊断方法和处理建议，使管理者迅速排除故障。

 	 	 	 
	
库存管理

建立库存设备的数据信息，管理设备状态变化，为管理及监控设备信息提供有效的基础数据，亦可对机房钥匙和工具等进行统一管理。

	
服务外包

包含维修外包、系统质保、系统维保等服务项目的管理，提供按合同编号查询服务外包项目信息、查询所有外包项目信息。

 	 	 	 
	
供应商管理

对设备的供应商信息进行管理，为运维人员提供有效的设备参考信息，具有信息录入、修改、查询等功能，便于供应商信息的维护。

	
运维计划

通过数据分析结果对实际设备进行一些智能控制操作，实际节能目的，以表格、柱状图形式呈现节能措施前后机房用电量，评估节能效果。


### mesh分类 ###
普通mesh：个体  
模板mesh：提供复制原型  
复制mesh：安装模板mesh进行复制

### 待办事项 ###
springmvc 加入template功能  
~~增加鼠标移动捕捉Mesh(是)~~  
~~增加右键隐藏其余网卡(是)~~  
~~增加左键单击显示网卡信息(是)~~  
~~支持利用率查看(是)~~  
支持数据库查询(是)  
~~支持新增设备建议(是)~~  
~~支持网线选中(是)~~   
~~连续点击同一网线，仅第一次显示提示窗~~  
~~点击设备，显示设备信息~~  
~~机柜左右上下重新建块，为了方便各自贴图，尤其是内壁贴U格数~~  
~~每台设备显示设备名称标签~~  
模拟一些东环数据(否)  
增加电缆布线功能 

### 设备上架 ###
弹出对话框（可手动关闭)  
对话框包括
*   所属区域
*   所属系统
*   所占U数
*   额定容量
候选位置

### js鼠标事件 ###
```
宋体	SimSun
黑体	SimHei
微软雅黑	Microsoft YaHei
微软正黑体	Microsoft JhengHei
新宋体	NSimSun
新细明体	PMingLiU
细明体	MingLiU
标楷体	DFKai-SB
仿宋	FangSong
楷体	KaiTi
### Map Usage ###
set(key, val)  
get(key)  
has(key)  
size()  
```
### Validator Rule ### 
```
notEmpty: {//检测非空,radio也可用
    message: '文本框必须输入'
},
greaterThan: {
    value: 18
},
lessThan: {
    value: 100
},
uri: {},
stringLength: {//检测长度
    min: 6,
    max: 30,
    message: '长度必须在6-30之间'
},
regexp: {//正则验证
    regexp: /^[a-zA-Z0-9_\.]+$/,
    message: '所输入的字符不符要求'
},
remote: {//将内容发送至指定页面验证，返回验证结果，比如查询用户名是否存在
    url: '指定页面',
    message: 'The username is not available'
},
different: {//与指定文本框比较内容相同
    field: '指定文本框name',
    message: '不能与指定文本框内容相同'
},
emailAddress: {//验证email地址
    message: '不是正确的email地址'
},
identical: {//与指定控件内容比较是否相同，比如两次密码不一致
    field: 'confirmPassword',//指定控件name
    message: '输入的内容不一致'
},
date: {//验证指定的日期格式
    format: 'YYYY/MM/DD',
    message: '日期格式不正确'
},
digits: {
 message: '该值只能包含数字。'
}
choice: {//check控件选择的数量
    min: 2,
    max: 4,
    message: '必须选择2-4个选项'
}
stringCase: {
  message: '姓氏必须只包含大写字符。',
  case: 'upper'//其他值或不填表示只能小写字符
},
threshold :  6 , //有6字符以上才发送ajax请求，（input中输入一个字符，插件会向服务器发送一次，设置限制，6字符以上才开始）
remote: {//ajax验证。server result:{"valid",true or false} 向服务发送当前input name值，获得一个json数据。例表示正确：{"valid",true}  
    url: 'exist2.do',//验证地址
    message: '用户已存在',//提示消息
    delay :  2000,//每输入一个字符，就发ajax请求，服务器压力还是太大，设置2秒发送一次ajax（默认输入一个字符，提交一次，服务器压力太大）
    type: 'POST'//请求方式
},
```

MarkDown 语法
===
标题
---
# 一级标题
## 二级标题
### 三级标题
#### 四级标题
换行(两个空格)  

* Red
* Green
* Blue

> 引用内容